!Keysight Technologies N9918A: A.11.31
!Date: Thursday, 06 October 2022 15:41:05
!TimeZone: (UTC+01:00) Amsterdam, Berlin, Bern, Rome, Stockholm, Vienna!Model: N9918A
!Serial: MY57271747
!GPS Latitude: 
!GPS Longitude: 
!GPS TimeStamp: 0001-01-01 00:00:00Z
!GPS Seconds Since Last Read: 0
!CHECKSUM:0938303084
!Correction: S11(ON U)
!S1P File: Measurement: S11:
# Hz S DB R 50
30000	2.61130192019049	-154.457701604513
26529970	-0.21789656320937	-3.27960759252842
53029940	-0.0688814848596118	-6.56330592175174
79529910	-0.275840213403041	-9.83860734576862
106029880	-0.0856083105813689	-13.0215713185303
132529850	-0.267613313967443	-16.4284564735939
159029820	-0.0809312063371087	-19.336374563194
185529790	-0.283604498416122	-22.6997547888762
212029760	-0.192492933765814	-27.9256165400367
238529730	-0.239635329568952	-28.8417697306461
265029700	-0.409172110916808	-31.8627771869177
291529670	-0.2227325623859	-34.855974892774
318029640	-0.429696914765122	-37.4022256934234
344529610	-0.204642660872778	-41.2632934753924
371029580	-0.458953968470487	-43.2864593307275
397529550	-0.104083553384104	-47.3370292432952
424029520	-0.452267482547148	-49.5708954693028
450529490	-0.0528035595766831	-53.9655405027983
477029460	-0.477575890954153	-55.765835436398
503529430	-0.0329521816648742	-61.4738784819518
530029400	-0.459939153136156	-61.8672574964376
556529370	-0.364130485643031	-69.8715311214041
583029340	-0.436497724417023	-68.4498868539319
609529310	-0.608718026471069	-74.7998560858446
636029280	-0.379585770812424	-74.6709046172584
662529250	-0.715064015422295	-78.3918882330207
689029220	-0.363080914889549	-81.1129070613834
715529190	-0.667610410455445	-84.2192008483016
742029160	-0.386404392031057	-87.6774148409837
768529130	-0.592544376939347	-89.7577694195095
795029100	-0.277313954354494	-94.0860850243222
821529070	-0.566093672205496	-95.792116001679
848029040	-0.282095118496582	-101.810625923195
874529010	-0.530587002283752	-101.878118691147
901028980	-0.247033005307985	-110.007297357549
927528950	-0.504528611193188	-108.402210210747
954028920	-0.713914603349107	-117.138919928887
980528890	-0.455552537857609	-114.152654741281
1007028860	-0.986029466583579	-121.129089123221
1033528830	-0.511077320259681	-121.201108525748
1060028800	-0.897790503442862	-125.547222570162
1086528770	-0.515292426940578	-127.355384014395
1113028740	-0.818640559655419	-131.632926135958
1139528710	-0.581910258348717	-133.891704866546
1166028680	-0.782261514082053	-137.053899275
1192528650	-0.558124710336255	-140.350345910183
1219028620	-0.770666970136584	-142.87671345329
1245528590	-0.460269713169403	-147.262260928555
1272028560	-0.689802122007023	-148.476533726496
1298528530	-0.550264678190445	-155.595268433827
1325028500	-0.61056592246313	-154.444066348351
1351528470	-0.905746198219169	-162.437983226884
1378028440	-0.636532586324702	-160.520946454464
1404528410	-1.25924135110151	-167.811427343305
1431028380	-0.565183811413076	-167.058600751682
1457528350	-1.31794019298419	-172.133013836583
1484028320	-0.574383317661435	-173.224627469376
1510528290	-1.20796050980394	-177.007152113879
1537028260	-0.626139027862832	179.515492324057
1563528230	-1.00112690780645	176.749794079047
1590028200	-0.718009295678225	172.616997592626
1616528170	-0.910702095520899	170.486350496417
1643028140	-1.05883926063934	166.515978523165
1669528110	-0.802160905687809	163.83617064607
1696028080	-1.05334463123394	161.788439569869
1722528050	-0.838900610774572	156.700277842484
1749028020	-1.02937738873776	155.914159485088
1775527990	-0.994167294890373	150.462349758913
1802027960	-0.963462951874191	149.527671509367
1828527930	-1.02381483348987	145.104912998472
1855027900	-1.0481708965371	142.998544752091
1881527870	-1.05573908703191	139.290658352522
1908027840	-0.995780440972555	136.28635086909
1934527810	-1.04668283017404	134.175242371221
1961027780	-1.03664806956998	129.698094552993
1987527750	-1.00093330976927	128.277797700001
2014027720	-1.06030567490321	122.969198135404
2040527690	-1.01444788285871	122.271434834057
2067027660	-1.18153393631656	116.400014338748
2093527630	-1.0446214914966	116.307261447007
2120027600	-1.25735247269233	110.293623672645
2146527570	-1.01787051145459	110.680006737978
2173027540	-1.37022210580109	103.757258091468
2199527510	-1.00554027643055	103.986878119398
2226027480	-1.40235219978865	98.5755645881491
2252527450	-1.05106568921389	98.0570229302251
2279027420	-1.40915691754646	93.0224652114903
2305527390	-1.10208470619129	91.6757582995523
2332027360	-1.50921171451607	87.0772569404798
2358527330	-1.11113823934046	85.3499951282273
2385027300	-1.33358757438751	81.6200762789283
2411527270	-1.23582013178732	78.9968208478193
2438027240	-1.38245329098206	75.509491048568
2464527210	-1.2928977680916	72.9456519229925
2491027180	-1.36529795015687	70.2256562713431
2517527150	-1.39867826223838	66.5372286519324
2544027120	-1.27824480418032	63.8218279031182
2570527090	-1.46338255627925	60.7929888580948
2597027060	-1.41674495924474	57.671767017002
2623527030	-1.53148436693669	54.5727749471675
2650027000	-1.47895245542026	52.369853348066
2676526970	-1.45867549335266	48.1536707848899
2703026940	-1.468327196086	46.8603979401482
2729526910	-1.53030796129606	41.840725285709
2756026880	-1.44804927533245	41.395670879856
2782526850	-1.56435209718776	35.2812813008336
2809026820	-1.48706450972475	36.2686695500902
2835526790	-1.6950534459496	28.2522823936785
2862026760	-1.46169352342582	30.4690626350224
2888526730	-2.01743596995771	22.0996505750442
2915026700	-1.35948234859779	23.9001987889755
2941526670	-2.15030247588498	17.8019354670449
2968026640	-1.41012327743611	17.6910493608152
2994526610	-2.20841640350685	13.9339483634791
3021026580	-1.30485732215164	11.2727031936109
3047526550	-2.02745952252901	8.06353741467135
3074026520	-1.36690981851641	4.08386108494432
3100526490	-1.84295726800536	3.2944059572459
3127026460	-1.454785235166	-3.46878960142419
3153526430	-1.78485627828843	-2.40256123011278
3180026400	-1.58325154979188	-10.7124708552712
3206526370	-1.65745866680067	-7.95248354869031
3233026340	-1.89230878371249	-18.0165389279926
3259526310	-1.56049693254148	-14.28367814881
3286026280	-2.33951890323498	-24.3412886640402
3312526250	-1.4565156795964	-21.034149382949
3339026220	-2.54360608870298	-27.9398942887057
3365526190	-1.35983188747606	-26.6015117792398
3392026160	-2.69609214613106	-32.7104510907475
3418526130	-1.3408501729777	-33.3449335797671
3445026100	-2.57889228607586	-36.6906955673856
3471526070	-1.35046455131163	-40.470558871043
3498026040	-2.47272427204462	-42.6440318255562
3524526010	-1.33833323228065	-47.0311811953646
3551025980	-2.27122777964318	-47.5809326120438
3577525950	-1.35554358559725	-54.1619702997728
3604025920	-2.19770167378509	-54.1056159866984
3630525890	-1.4657782136182	-62.0678759663789
3657025860	-2.02419260159845	-59.5621394183413
3683525830	-1.62573734764687	-69.913360733698
3710025800	-1.89158057438573	-66.4726147256654
3736525770	-2.03415998744349	-77.6147250271221
3763025740	-1.80820758247118	-71.8328026731355
3789525710	-2.53384039319126	-84.4374919869334
3816025680	-1.75583644157499	-78.5728260220069
3842525650	-3.08852312011968	-89.1157958132651
3869025620	-1.702947696816	-84.9782150441748
3895525590	-3.3483596892514	-92.7701389542897
3922025560	-1.66577276137199	-91.2886985577523
3948525530	-3.38482118136629	-96.352059833029
3975025500	-1.56798290463825	-98.1496099487917
4001525470	-3.22112161170731	-100.304905877175
4028025440	-1.55497060695195	-105.10498740931
4054525410	-3.09035518069129	-105.625006247655
4081025380	-1.58536647530654	-112.726924975053
4107525350	-2.90690675590243	-111.185078320443
4134025320	-1.59221130487709	-120.253855573112
4160525290	-2.78281099176447	-117.967547674423
4187025260	-1.84323536628628	-128.088551224848
4213525230	-2.57443562283571	-123.69095698551
4240025200	-2.09676704482173	-136.383748838782
4266525170	-2.50393473387846	-130.246732623939
4293025140	-2.56412588594582	-143.588337172773
4319525110	-2.33097606648079	-136.091238827112
4346025080	-3.19330651261887	-149.488095873972
4372525050	-2.24624949936512	-143.140999377886
4399025020	-3.70800765001888	-152.445924813289
4425524990	-2.11112868341664	-149.941981335664
4452024960	-3.94127611031187	-155.533415229761
4478524930	-2.13639110543567	-157.455467817232
4505024900	-3.85072456306701	-158.490508527993
4531524870	-2.11208596168642	-163.366736886317
4558024840	-3.66491125191749	-163.5970576719
4584524810	-2.03332008554052	-172.045975297911
4611024780	-3.47302023887878	-168.250967320161
4637524750	-2.20198357037392	-178.363621709572
4664024720	-3.19016260338722	-174.893337957185
4690524690	-2.4452734991874	174.145946784308
4717024660	-3.13164336788252	179.427195102788
4743524630	-2.8663352825805	167.642122544078
4770024600	-2.84844626478568	172.340946503154
4796524570	-3.26752276954809	162.640300962503
4823024540	-2.86086369519768	165.509430922981
4849524510	-3.45037441559398	158.241463842878
4876024480	-2.76131408662921	158.366126369683
4902524450	-3.64248605717388	154.291399393164
4929024420	-2.86100431538763	151.292080893045
4955524390	-3.47480653593905	149.619719646293
4982024360	-2.63352611883576	144.725996881067
5008524330	-3.40409268276342	144.196161514621
5035024300	-2.79030445785413	137.816471380003
5061524270	-3.3138485184506	137.265186485482
5088024240	-2.80146720654893	133.310688746607
5114524210	-3.33658541475935	131.689917474844
5141024180	-2.86049598002708	125.629924040204
5167524150	-3.3988117668047	126.133472001085
5194024120	-2.7668495556592	120.628071630789
5220524090	-3.3579184880409	121.088143121791
5247024060	-2.83100004255638	113.084509324426
5273524030	-3.22125836656586	115.064269536874
5300024000	-2.89198738163206	106.616559929127
5326523970	-3.18085232690078	109.258959824123
5353023940	-3.11618154309058	99.3110719577172
5379523910	-3.0228844848677	102.568582611584
5406023880	-3.38395235671675	94.5660643161272
5432523850	-2.95488552713012	96.4127484025217
5459023820	-3.62289896757826	89.3951375125489
5485523790	-2.89907403719698	89.4116817918053
5512023760	-3.72818659941873	85.5031598943225
5538523730	-2.77526817996106	83.4377074549742
5565023700	-3.78962922487548	80.4338884837118
5591523670	-2.78065579873239	75.7708267722125
5618023640	-3.65850245981231	76.3515618938116
5644523610	-2.64095396514621	69.0716454996799
5671023580	-3.76618397491525	71.4858891554385
5697523550	-2.65881031118978	61.6305447437288
5724023520	-3.43059571265661	65.7739131319021
5750523490	-2.72529295355228	54.9209920205038
5777023460	-3.43758115517348	59.4168212055192
5803523430	-3.01835360455595	46.5867287024343
5830023400	-3.17726744949977	53.5030729060733
5856523370	-3.29551589897054	40.6364751911788
5883023340	-3.20035283964836	47.1160041884278
5909523310	-3.78870698789758	32.9726045508919
5936023280	-3.00132675990479	40.1632485634832
5962523250	-4.1934152073338	29.422679524039
5989023220	-3.0246823422944	33.3761978590397
6015523190	-4.6185576674099	25.9686024100621
6042023160	-2.91479760782507	26.2994568173077
6068523130	-4.5482494443854	24.1661774585877
6095023100	-2.95627619570821	19.3140068037606
6121523070	-4.41454582379805	19.5367304551273
6148023040	-2.92728121058993	12.3555871157187
6174523010	-4.16262856085517	15.4910702711622
6201022980	-2.99211110765798	4.25065613725657
6227522950	-4.00488328052465	9.13544602312782
6254022920	-3.14619411286063	-3.07294231948383
6280522890	-3.85753894845523	4.00328938726434
6307022860	-3.44733663722218	-10.0737890246794
6333522830	-3.78335248364439	-2.65391562636227
6360022800	-3.84793132828041	-17.2394931776527
6386522770	-3.64289131320734	-8.14958997514322
6413022740	-4.22484274331612	-20.6887665656027
6439522710	-3.75535963117707	-15.5752579246446
6466022680	-4.50149120610353	-25.3387063026941
6492522650	-3.51348175450795	-21.333352244924
6519022620	-4.73544445754997	-28.8687389261643
6545522590	-3.59056973279193	-28.3723874018132
6572022560	-4.76906611306477	-34.0213694687643
6598522530	-3.50825732854092	-34.6090197625389
6625022500	-4.72601975974314	-35.8970976240032
6651522470	-3.64788278513669	-42.5350484449921
6678022440	-4.69086975062967	-40.9211393682588
6704522410	-3.60022931142234	-49.1926967331697
6731022380	-4.39664846168823	-44.8526407668304
6757522350	-3.79570009766779	-56.5827990950239
6784022320	-4.25356221303124	-52.1179503393454
6810522290	-3.9379545518067	-61.9572536132743
6837022260	-4.0118117204673	-56.3037775928826
6863522230	-4.36650678930781	-68.4332213058983
6890022200	-3.9393700057496	-63.9298255780964
6916522170	-4.63909026120396	-72.8001423900648
6943022140	-3.82352066488409	-69.9563321481182
6969522110	-4.90892490463209	-75.5701679499269
6996022080	-3.84864280985451	-78.3248478008261
7022522050	-4.66507393869169	-80.8555017086762
7049022020	-3.67559879416963	-83.430913989896
7075521990	-4.55389192853922	-84.1388367337346
7102021960	-4.00227125475169	-92.0149054857396
7128521930	-4.2108945804555	-90.7524758936648
7155021900	-4.00730483863794	-97.7091173801502
7181521870	-4.23910032959417	-95.1768135956346
7208021840	-4.28281528063452	-104.997353610024
7234521810	-4.12030787875574	-103.4414716143
7261021780	-4.16587278878193	-110.797358953968
7287521750	-4.17300753260134	-107.768193748108
7314021720	-4.57300162566585	-117.74914936428
7340521690	-4.10136491121048	-114.967203539351
7367021660	-4.54885028830354	-123.467367444475
7393521630	-4.04059160246516	-120.251533111808
7420021600	-4.82795567585217	-129.264794546862
7446521570	-4.0672276654818	-128.832816541403
7473021540	-4.73259585766932	-134.122264425815
7499521510	-3.86228636613798	-133.703188384135
7526021480	-4.90828878230909	-138.270287045897
7552521450	-4.0988692952717	-142.947391785724
7579021420	-4.59853572584307	-143.251712695363
7605521390	-4.00637991071502	-148.248157999375
7632021360	-4.68181808711951	-148.748512548757
7658521330	-4.32540461498783	-156.526179015988
7685021300	-4.46884432565054	-154.882234713581
7711521270	-4.30215052962635	-162.583087693919
7738021240	-4.52815704232885	-160.093832431121
7764521210	-4.52641338827125	-171.736085933798
7791021180	-4.2461729287615	-167.453867980025
7817521150	-4.58733622037315	-176.496403878186
7844021120	-4.37197217858102	-172.509258888591
7870521090	-4.95714156569072	174.782754203023
7897021060	-4.38370890317159	-179.532416711813
7923521030	-4.87889957723202	170.608729038162
7950021000	-4.58561414596409	174.658268459708
7976520970	-5.31798369891892	163.034527606507
8003020940	-4.34113313550197	167.471717935625
8029520910	-5.31787469473261	159.410760832107
8056020880	-4.56389053173519	162.568382717033
8082520850	-5.58897610938872	152.638046283788
8109020820	-4.61300294498584	154.917781025217
8135520790	-5.59120144421412	148.850544259196
8162020760	-4.74070892809718	148.922340682423
8188520730	-5.70854632609614	142.792892784856
8215020700	-4.75321735843139	141.604152312767
8241520670	-5.64169997621526	140.145163752695
8268020640	-4.81961233232815	135.759704731003
8294520610	-5.66776677978263	134.474101801405
8321020580	-5.00656804139974	127.634377767526
8347520550	-5.30010031015697	130.536211472244
8374020520	-5.146201281356	121.561301741601
8400520490	-5.50562817297699	125.788481341142
8427020460	-5.44773540253675	113.730755221868
8453520430	-5.09480427310242	120.944722357925
8480020400	-5.44408061913415	108.561534378035
8506520370	-5.14640659399525	115.551690478351
8533020340	-5.9591358418415	100.797028741435
8559520310	-4.88413892714246	109.91094349045
8586020280	-6.10382198210798	96.8356979321813
8612520250	-5.22608167311958	103.552026721507
8639020220	-6.42714390176845	89.5445558385361
8665520190	-4.80036834885374	97.8676500534616
8692020160	-6.37632977105131	89.4293521433165
8718520130	-5.03712167070851	91.6770606386672
8745020100	-6.46455783776578	80.45841005612
8771520070	-4.77981083241958	84.1937635455086
8798020040	-6.09885514200639	80.4574728895228
8824520010	-5.21025341772599	77.8133685649479
8851019980	-6.06384164274891	72.5352125733894
8877519950	-4.91430675950954	70.9753381365788
8904019920	-5.64779281972071	70.6273528538064
8930519890	-5.5600112413508	64.8660345674473
8957019860	-5.54278696440893	62.0369925972909
8983519830	-5.37489918754942	56.8105465445161
9010019800	-5.16619357133369	58.4372451695725
9036519770	-5.86853960648462	52.3671671013325
9063019740	-5.30221292199829	49.8409321048844
9089519710	-5.61747046650195	44.4559566492258
9116019680	-4.84904820736056	45.5005972451445
9142519650	-5.8382366071015	40.9305514661391
9169019620	-5.06843396864187	38.4977077015486
9195519590	-5.88191087489147	31.6423961304028
9222019560	-4.79438211391519	32.4045735465447
9248519530	-5.9352516176993	27.9830600549828
9275019500	-5.1577868202152	25.3091537461096
9301519470	-6.05716820332134	19.1461853388697
9328019440	-4.86557336691944	19.8944764698484
9354519410	-6.02066035947121	16.4061587579031
9381019380	-5.05029492462041	13.421975236896
9407519350	-5.86419452846605	8.49593125740547
9434019320	-5.04636987830421	6.87274201854562
9460519290	-5.73653308564205	4.94949264763808
9487019260	-5.45357732116736	0.0987205117515953
9513519230	-5.78231411932345	-3.90421836439733
9540019200	-5.24602743972953	-7.3068016802331
9566519170	-5.55533265775568	-6.97428758792633
9593019140	-5.90676153335167	-13.7759476802359
9619519110	-5.80838198132128	-15.8712746203743
9646019080	-5.81918771523775	-19.905161891691
9672519050	-5.38006727653923	-19.5546400791148
9699019020	-6.45944054182449	-26.0611784593924
9725518990	-5.35117661979543	-29.0669506362815
9752018960	-6.36502968782597	-31.7014418398582
9778518930	-5.15618177403332	-33.2576887087542
9805018900	-7.05020369884666	-36.2378090295964
9831518870	-5.37895097587889	-42.1259538953392
9858018840	-6.82910496461863	-42.2237353586458
9884518810	-5.25574646594794	-47.3296107068936
9911018780	-7.12895006341615	-45.1527143710124
9937518750	-5.61789614143559	-55.1873124502249
9964018720	-6.85547271816692	-52.2211744978868
9990518690	-5.70250155017351	-60.5416806578052
10017018660	-6.80618070160859	-55.9012215950255
10043518630	-6.16301601418667	-68.5835472673228
10070018600	-6.66182546267699	-63.1945909799295
10096518570	-6.39796956080106	-73.2278765875498
10123018540	-6.61277503490044	-67.2536379958336
10149518510	-7.08974357545621	-80.2296594457695
10176018480	-6.48180196297066	-74.9900081542515
10202518450	-7.27317196490283	-83.6526466513424
10229018420	-6.43805502603279	-79.9597959648963
10255518390	-7.93756919815841	-89.0436254833575
10282018360	-6.32624980101402	-88.5104627413737
10308518330	-7.76816657081091	-92.2831290935138
10335018300	-6.42021030529896	-92.6830666057196
10361518270	-8.09897974965405	-95.2124945337813
10388018240	-6.52496508811569	-101.276092683466
10414518210	-7.73229188764282	-98.8189531116927
10441018180	-6.30904598604011	-104.636680368234
10467518150	-8.09514036513263	-103.050698128876
10494018120	-6.65451508358858	-114.752568845651
10520518090	-7.63078354600958	-108.766129809534
10547018060	-6.6032817370688	-118.290980598189
10573518030	-7.59451091863286	-113.224376904979
10600018000	-7.01084882159828	-126.8011036085
10626517970	-7.25448031519692	-119.76499784277
10653017940	-6.9905276811969	-129.255997850001
10679517910	-7.15229850773805	-124.203269436054
10706017880	-7.32646790552995	-137.051098316663
10732517850	-6.79260905485223	-132.345551347521
10759017820	-7.26128282848509	-140.517714984403
10785517790	-6.86841622168397	-137.042138450583
10812017760	-7.53042933840979	-147.137860913247
10838517730	-6.5468852982364	-145.308755513633
10865017700	-7.27727487959922	-150.262146570735
10891517670	-6.69301333530466	-150.123873624635
10918017640	-7.59662949967035	-157.313892528832
10944517610	-6.54519978443965	-158.591181794548
10971017580	-7.01462513727008	-161.588392259579
10997517550	-6.5736289157584	-163.032385316145
11024017520	-7.26433708542495	-169.38941016635
11050517490	-6.45211681621564	-171.526834387442
11077017460	-6.98816023663045	-174.919625090482
11103517430	-6.67011170323737	-175.608013729842
11130017400	-7.1242398198329	178.923333502514
